               * /home/manpa/esim-workspace/ia_model/ia_model.cir
               Transient Analysis  Wed Jun 30 17:36:29  2021
--------------------------------------------------------------------------------
Index   time            e.x1.ein1#branc e.x1.eout1#bran e.x2.ein1#branc 
--------------------------------------------------------------------------------
0	0.000000e+00	0.000000e+00	-1.14266e+02	-3.46945e-18	
1	1.000000e-05	2.511986e-06	-1.14266e+02	1.906369e-06	
2	2.000000e-05	5.022587e-06	-1.14266e+02	3.811750e-06	
3	4.000000e-05	1.004052e-05	-1.14266e+02	7.620149e-06	
4	8.000000e-05	2.005544e-05	-1.14265e+02	1.522173e-05	
5	1.600000e-04	3.997949e-05	-1.14265e+02	3.034738e-05	
6	3.200000e-04	7.923042e-05	-1.14261e+02	6.015630e-05	
7	6.400000e-04	1.539846e-04	-1.14247e+02	1.169712e-04	
8	1.280000e-03	2.784699e-04	-1.14196e+02	2.117508e-04	
9	2.560000e-03	3.688431e-04	-1.14043e+02	2.812236e-04	
10	4.560000e-03	5.652562e-05	-1.13886e+02	4.497944e-05	
11	6.560000e-03	-3.68902e-04	-1.14001e+02	-2.78806e-04	
12	8.560000e-03	-3.16095e-04	-1.14254e+02	-2.40357e-04	
13	1.056000e-02	1.450420e-04	-1.14318e+02	1.092762e-04	
14	1.256000e-02	3.800089e-04	-1.14124e+02	2.888312e-04	
15	1.456000e-02	6.660050e-05	-1.13959e+02	5.190775e-05	
16	1.656000e-02	-3.59807e-04	-1.14067e+02	-2.72493e-04	
17	1.856000e-02	-3.07882e-04	-1.14314e+02	-2.34605e-04	
18	2.056000e-02	1.524552e-04	-1.14371e+02	1.145140e-04	
19	2.256000e-02	3.866966e-04	-1.14172e+02	2.935934e-04	
20	2.456000e-02	7.263443e-05	-1.14002e+02	5.623990e-05	
21	2.656000e-02	-3.54360e-04	-1.14106e+02	-2.68551e-04	
22	2.856000e-02	-3.02964e-04	-1.14349e+02	-2.31018e-04	
23	3.056000e-02	1.568952e-04	-1.14403e+02	1.177742e-04	
24	3.256000e-02	3.907020e-04	-1.14201e+02	2.965559e-04	
25	3.456000e-02	7.624815e-05	-1.14028e+02	5.892971e-05	
26	3.656000e-02	-3.51097e-04	-1.14130e+02	-2.66106e-04	
27	3.856000e-02	-3.00018e-04	-1.14370e+02	-2.28796e-04	
28	4.056000e-02	1.595541e-04	-1.14422e+02	1.197933e-04	
29	4.256000e-02	3.931007e-04	-1.14218e+02	2.983868e-04	
30	4.456000e-02	7.841229e-05	-1.14044e+02	6.059234e-05	
31	4.656000e-02	-3.49144e-04	-1.14144e+02	-2.64597e-04	
32	4.856000e-02	-2.98253e-04	-1.14383e+02	-2.27425e-04	
33	5.056000e-02	1.611465e-04	-1.14434e+02	1.210362e-04	
34	5.256000e-02	3.945371e-04	-1.14228e+02	2.995147e-04	
35	5.456000e-02	7.970827e-05	-1.14053e+02	6.161395e-05	
36	5.656000e-02	-3.47974e-04	-1.14152e+02	-2.63669e-04	
37	5.856000e-02	-2.97197e-04	-1.14391e+02	-2.26584e-04	
38	6.056000e-02	1.621000e-04	-1.14440e+02	1.217997e-04	
39	6.256000e-02	3.953973e-04	-1.14235e+02	3.002054e-04	
40	6.456000e-02	8.048435e-05	-1.14059e+02	6.224089e-05	
41	6.656000e-02	-3.47273e-04	-1.14157e+02	-2.63102e-04	
42	6.856000e-02	-2.96564e-04	-1.14395e+02	-2.26068e-04	
43	7.056000e-02	1.626710e-04	-1.14445e+02	1.222657e-04	
44	7.256000e-02	3.959124e-04	-1.14238e+02	3.006285e-04	
45	7.456000e-02	8.094907e-05	-1.14062e+02	6.262289e-05	
46	7.656000e-02	-3.46853e-04	-1.14160e+02	-2.62754e-04	
47	7.856000e-02	-2.96186e-04	-1.14398e+02	-2.25755e-04	
48	8.056000e-02	1.630129e-04	-1.14447e+02	1.225509e-04	
49	8.256000e-02	3.962209e-04	-1.14240e+02	3.008854e-04	
50	8.456000e-02	8.122737e-05	-1.14064e+02	6.285656e-05	
51	8.656000e-02	-3.46602e-04	-1.14162e+02	-2.62544e-04	
52	8.856000e-02	-2.95959e-04	-1.14399e+02	-2.25563e-04	
53	9.056000e-02	1.632177e-04	-1.14449e+02	1.227234e-04	
54	9.256000e-02	3.964056e-04	-1.14242e+02	3.010426e-04	

Index   time            e.x1.ein1#branc e.x1.eout1#bran e.x2.ein1#branc 
--------------------------------------------------------------------------------
55	9.456000e-02	8.139401e-05	-1.14065e+02	6.299765e-05	
56	9.656000e-02	-3.46452e-04	-1.14163e+02	-2.62415e-04	
57	9.856000e-02	-2.95823e-04	-1.14400e+02	-2.25447e-04	
58	1.000000e-01	2.855882e-05	-1.14472e+02	2.037950e-05	

               * /home/manpa/esim-workspace/ia_model/ia_model.cir
               Transient Analysis  Wed Jun 30 17:36:29  2021
--------------------------------------------------------------------------------
Index   time            e.x2.eout1#bran e.x3.ein1#branc e.x3.eout1#bran 
--------------------------------------------------------------------------------
0	0.000000e+00	-5.82128e-08	0.000000e+00	9.708652e-09	
1	1.000000e-05	-5.81031e-08	-3.84292e-08	9.659350e-09	
2	2.000000e-05	-5.79933e-08	-3.93319e-08	9.609948e-09	
3	4.000000e-05	-5.77745e-08	-3.92969e-08	9.511229e-09	
4	8.000000e-05	-5.73374e-08	-3.91772e-08	9.314180e-09	
5	1.600000e-04	-5.64671e-08	-3.89035e-08	8.922059e-09	
6	3.200000e-04	-5.47514e-08	-3.80482e-08	8.149166e-09	
7	6.400000e-04	-5.14784e-08	-3.53129e-08	6.675536e-09	
8	1.280000e-03	-4.60061e-08	-2.59374e-08	4.214956e-09	
9	2.560000e-03	-4.19456e-08	3.360793e-09	2.401650e-09	
10	4.560000e-03	-5.54737e-08	4.533080e-08	8.516136e-09	
11	6.560000e-03	-7.41588e-08	2.164697e-08	1.692470e-08	
12	8.560000e-03	-7.20267e-08	-2.95060e-08	1.593658e-08	
13	1.056000e-02	-5.19570e-08	-4.25947e-08	6.883810e-09	
14	1.256000e-02	-4.15374e-08	5.352492e-09	2.209268e-09	
15	1.456000e-02	-5.51045e-08	4.348481e-08	8.341943e-09	
16	1.656000e-02	-7.38152e-08	2.359082e-08	1.676290e-08	
17	1.856000e-02	-7.17197e-08	-3.13147e-08	1.579164e-08	
18	2.056000e-02	-5.16748e-08	-4.06927e-08	6.750686e-09	
19	2.256000e-02	-4.12866e-08	3.568540e-09	2.090867e-09	
20	2.456000e-02	-5.48695e-08	4.533018e-08	8.231352e-09	
21	2.656000e-02	-7.36051e-08	2.183769e-08	1.666379e-08	
22	2.856000e-02	-7.15237e-08	-2.95079e-08	1.569937e-08	
23	3.056000e-02	-5.15031e-08	-4.24089e-08	6.669699e-09	
24	3.256000e-02	-4.11263e-08	5.327335e-09	2.015324e-09	
25	3.456000e-02	-5.47282e-08	4.364185e-08	8.164562e-09	
26	3.656000e-02	-7.34705e-08	2.355236e-08	1.660040e-08	
27	3.856000e-02	-7.14063e-08	-3.11572e-08	1.564410e-08	
28	4.056000e-02	-5.13922e-08	-4.07345e-08	6.617661e-09	
29	4.256000e-02	-4.10318e-08	3.711163e-09	1.970505e-09	
30	4.456000e-02	-5.46362e-08	4.527049e-08	8.121397e-09	
31	4.656000e-02	-7.33914e-08	2.197174e-08	1.656318e-08	
32	4.856000e-02	-7.13299e-08	-2.95674e-08	1.560812e-08	
33	5.056000e-02	-5.13286e-08	-4.22773e-08	6.587498e-09	
34	5.256000e-02	-4.09685e-08	5.258642e-09	1.941016e-09	
35	5.456000e-02	-5.45842e-08	4.376219e-08	8.096744e-09	
36	5.656000e-02	-7.33388e-08	2.347843e-08	1.653840e-08	
37	5.856000e-02	-7.12872e-08	-3.10371e-08	1.558791e-08	
38	6.056000e-02	-5.12851e-08	-4.08099e-08	6.567093e-09	
39	6.256000e-02	-4.09345e-08	3.825477e-09	1.924827e-09	
40	6.456000e-02	-5.45481e-08	4.518826e-08	8.079742e-09	
41	6.656000e-02	-7.33108e-08	2.208264e-08	1.652513e-08	
42	6.856000e-02	-7.12562e-08	-2.96497e-08	1.557366e-08	
43	7.056000e-02	-5.12630e-08	-4.21675e-08	6.556505e-09	
44	7.256000e-02	-4.09094e-08	5.172906e-09	1.913039e-09	
45	7.456000e-02	-5.45302e-08	4.386764e-08	8.071248e-09	
46	7.656000e-02	-7.32893e-08	2.339073e-08	1.651513e-08	
47	7.856000e-02	-7.12422e-08	-3.09318e-08	1.556685e-08	
48	8.056000e-02	-5.12449e-08	-4.08982e-08	6.548158e-09	
49	8.256000e-02	-4.08983e-08	3.928445e-09	1.907743e-09	
50	8.456000e-02	-5.45147e-08	4.509748e-08	8.064183e-09	
51	8.656000e-02	-7.32803e-08	2.218426e-08	1.651093e-08	
52	8.856000e-02	-7.12290e-08	-2.97404e-08	1.556082e-08	
53	9.056000e-02	-5.12383e-08	-4.20664e-08	6.544968e-09	
54	9.256000e-02	-4.08871e-08	5.080867e-09	1.902635e-09	

Index   time            e.x2.eout1#bran e.x3.ein1#branc e.x3.eout1#bran 
--------------------------------------------------------------------------------
55	9.456000e-02	-5.45100e-08	4.396706e-08	8.061776e-09	
56	9.656000e-02	-7.32706e-08	2.329800e-08	1.650649e-08	
57	9.856000e-02	-7.12257e-08	-3.08325e-08	1.555904e-08	
58	1.000000e-01	-5.71251e-08	-3.95573e-08	9.195727e-09	

               * /home/manpa/esim-workspace/ia_model/ia_model.cir
               Transient Analysis  Wed Jun 30 17:36:29  2021
--------------------------------------------------------------------------------
Index   time            v1#branch       v2#branch       v3#branch       
--------------------------------------------------------------------------------
0	0.000000e+00	4.856831e-08	4.851979e-08	-8.33994e-05	
1	1.000000e-05	4.856203e-08	4.851502e-08	-8.33994e-05	
2	2.000000e-05	4.855574e-08	4.851025e-08	-8.33994e-05	
3	4.000000e-05	4.854317e-08	4.850071e-08	-8.33995e-05	
4	8.000000e-05	4.851804e-08	4.848164e-08	-8.33995e-05	
5	1.600000e-04	4.846785e-08	4.844354e-08	-8.33996e-05	
6	3.200000e-04	4.836823e-08	4.836788e-08	-8.33998e-05	
7	6.400000e-04	4.817549e-08	4.822139e-08	-8.34001e-05	
8	1.280000e-03	4.784255e-08	4.796793e-08	-8.34006e-05	
9	2.560000e-03	4.755158e-08	4.774472e-08	-8.34010e-05	
10	4.560000e-03	4.826560e-08	4.828412e-08	-8.33997e-05	
11	6.560000e-03	4.937820e-08	4.913029e-08	-8.33979e-05	
12	8.560000e-03	4.935372e-08	4.911567e-08	-8.33981e-05	
13	1.056000e-02	4.822773e-08	4.826216e-08	-8.34000e-05	
14	1.256000e-02	4.755789e-08	4.775078e-08	-8.34011e-05	
15	1.456000e-02	4.827130e-08	4.828960e-08	-8.33998e-05	
16	1.656000e-02	4.938335e-08	4.913523e-08	-8.33979e-05	
17	1.856000e-02	4.935835e-08	4.912011e-08	-8.33981e-05	
18	2.056000e-02	4.823191e-08	4.826617e-08	-8.34001e-05	
19	2.256000e-02	4.756167e-08	4.775440e-08	-8.34011e-05	
20	2.456000e-02	4.827471e-08	4.829287e-08	-8.33998e-05	
21	2.656000e-02	4.938643e-08	4.913818e-08	-8.33979e-05	
22	2.856000e-02	4.936113e-08	4.912277e-08	-8.33981e-05	
23	3.056000e-02	4.823441e-08	4.826857e-08	-8.34001e-05	
24	3.256000e-02	4.756393e-08	4.775657e-08	-8.34011e-05	
25	3.456000e-02	4.827676e-08	4.829483e-08	-8.33998e-05	
26	3.656000e-02	4.938827e-08	4.913994e-08	-8.33979e-05	
27	3.856000e-02	4.936279e-08	4.912436e-08	-8.33981e-05	
28	4.056000e-02	4.823591e-08	4.827000e-08	-8.34001e-05	
29	4.256000e-02	4.756528e-08	4.775786e-08	-8.34011e-05	
30	4.456000e-02	4.827798e-08	4.829600e-08	-8.33998e-05	
31	4.656000e-02	4.938937e-08	4.914099e-08	-8.33979e-05	
32	4.856000e-02	4.936378e-08	4.912530e-08	-8.33981e-05	
33	5.056000e-02	4.823680e-08	4.827085e-08	-8.34001e-05	
34	5.256000e-02	4.756609e-08	4.775864e-08	-8.34011e-05	
35	5.456000e-02	4.827871e-08	4.829670e-08	-8.33998e-05	
36	5.656000e-02	4.939003e-08	4.914162e-08	-8.33979e-05	
37	5.856000e-02	4.936437e-08	4.912587e-08	-8.33981e-05	
38	6.056000e-02	4.823734e-08	4.827136e-08	-8.34001e-05	
39	6.256000e-02	4.756658e-08	4.775910e-08	-8.34011e-05	
40	6.456000e-02	4.827915e-08	4.829711e-08	-8.33998e-05	
41	6.656000e-02	4.939043e-08	4.914200e-08	-8.33979e-05	
42	6.856000e-02	4.936473e-08	4.912621e-08	-8.33981e-05	
43	7.056000e-02	4.823766e-08	4.827167e-08	-8.34001e-05	
44	7.256000e-02	4.756687e-08	4.775938e-08	-8.34011e-05	
45	7.456000e-02	4.827942e-08	4.829737e-08	-8.33998e-05	
46	7.656000e-02	4.939067e-08	4.914223e-08	-8.33979e-05	
47	7.856000e-02	4.936494e-08	4.912642e-08	-8.33981e-05	
48	8.056000e-02	4.823785e-08	4.827185e-08	-8.34001e-05	
49	8.256000e-02	4.756704e-08	4.775954e-08	-8.34011e-05	
50	8.456000e-02	4.827957e-08	4.829751e-08	-8.33998e-05	
51	8.656000e-02	4.939081e-08	4.914236e-08	-8.33979e-05	
52	8.856000e-02	4.936507e-08	4.912654e-08	-8.33981e-05	
53	9.056000e-02	4.823797e-08	4.827196e-08	-8.34001e-05	
54	9.256000e-02	4.756715e-08	4.775964e-08	-8.34011e-05	

Index   time            v1#branch       v2#branch       v3#branch       
--------------------------------------------------------------------------------
55	9.456000e-02	4.827967e-08	4.829760e-08	-8.33998e-05	
56	9.656000e-02	4.939089e-08	4.914244e-08	-8.33979e-05	
57	9.856000e-02	4.936515e-08	4.912661e-08	-8.33981e-05	
58	1.000000e-01	4.858440e-08	4.853522e-08	-8.33995e-05	
