               * /home/manpa/esim-workspace/ia_model/ia_model.cir
               Transient Analysis  Wed Jun 30 17:36:29  2021
--------------------------------------------------------------------------------
Index   time            in1             in2             net-_c1-pad1_   
--------------------------------------------------------------------------------
0	0.000000e+00	0.000000e+00	0.000000e+00	1.162723e+00	
1	1.000000e-05	9.424716e-06	1.256629e-05	1.162722e+00	
2	2.000000e-05	1.884906e-05	2.513208e-05	1.162722e+00	
3	4.000000e-05	3.769514e-05	5.026019e-05	1.162722e+00	
4	8.000000e-05	7.536648e-05	1.004886e-04	1.162722e+00	
5	1.600000e-04	1.505426e-04	2.007234e-04	1.162722e+00	
6	3.200000e-04	2.995650e-04	3.994200e-04	1.162722e+00	
7	6.400000e-04	5.870605e-04	7.827473e-04	1.162722e+00	
8	1.280000e-03	1.080464e-03	1.440618e-03	1.162723e+00	
9	2.560000e-03	1.498934e-03	1.998579e-03	1.162723e+00	
10	4.560000e-03	4.094279e-04	5.459039e-04	1.162723e+00	
11	6.560000e-03	-1.24589e-03	-1.66119e-03	1.162723e+00	
12	8.560000e-03	-1.17943e-03	-1.57258e-03	1.162723e+00	
13	1.056000e-02	5.169644e-04	6.892858e-04	1.162722e+00	
14	1.256000e-02	1.498934e-03	1.998579e-03	1.162723e+00	
15	1.456000e-02	4.094279e-04	5.459039e-04	1.162723e+00	
16	1.656000e-02	-1.24589e-03	-1.66119e-03	1.162723e+00	
17	1.856000e-02	-1.17943e-03	-1.57258e-03	1.162723e+00	
18	2.056000e-02	5.169644e-04	6.892858e-04	1.162722e+00	
19	2.256000e-02	1.498934e-03	1.998579e-03	1.162723e+00	
20	2.456000e-02	4.094279e-04	5.459039e-04	1.162723e+00	
21	2.656000e-02	-1.24589e-03	-1.66119e-03	1.162723e+00	
22	2.856000e-02	-1.17943e-03	-1.57258e-03	1.162723e+00	
23	3.056000e-02	5.169644e-04	6.892858e-04	1.162722e+00	
24	3.256000e-02	1.498934e-03	1.998579e-03	1.162723e+00	
25	3.456000e-02	4.094279e-04	5.459039e-04	1.162723e+00	
26	3.656000e-02	-1.24589e-03	-1.66119e-03	1.162723e+00	
27	3.856000e-02	-1.17943e-03	-1.57258e-03	1.162723e+00	
28	4.056000e-02	5.169644e-04	6.892858e-04	1.162722e+00	
29	4.256000e-02	1.498934e-03	1.998579e-03	1.162723e+00	
30	4.456000e-02	4.094279e-04	5.459039e-04	1.162723e+00	
31	4.656000e-02	-1.24589e-03	-1.66119e-03	1.162723e+00	
32	4.856000e-02	-1.17943e-03	-1.57258e-03	1.162723e+00	
33	5.056000e-02	5.169644e-04	6.892858e-04	1.162722e+00	
34	5.256000e-02	1.498934e-03	1.998579e-03	1.162723e+00	
35	5.456000e-02	4.094279e-04	5.459039e-04	1.162723e+00	
36	5.656000e-02	-1.24589e-03	-1.66119e-03	1.162723e+00	
37	5.856000e-02	-1.17943e-03	-1.57258e-03	1.162723e+00	
38	6.056000e-02	5.169644e-04	6.892858e-04	1.162722e+00	
39	6.256000e-02	1.498934e-03	1.998579e-03	1.162723e+00	
40	6.456000e-02	4.094279e-04	5.459039e-04	1.162723e+00	
41	6.656000e-02	-1.24589e-03	-1.66119e-03	1.162723e+00	
42	6.856000e-02	-1.17943e-03	-1.57258e-03	1.162723e+00	
43	7.056000e-02	5.169644e-04	6.892858e-04	1.162722e+00	
44	7.256000e-02	1.498934e-03	1.998579e-03	1.162723e+00	
45	7.456000e-02	4.094279e-04	5.459039e-04	1.162723e+00	
46	7.656000e-02	-1.24589e-03	-1.66119e-03	1.162723e+00	
47	7.856000e-02	-1.17943e-03	-1.57258e-03	1.162723e+00	
48	8.056000e-02	5.169644e-04	6.892858e-04	1.162722e+00	
49	8.256000e-02	1.498934e-03	1.998579e-03	1.162723e+00	
50	8.456000e-02	4.094279e-04	5.459039e-04	1.162723e+00	
51	8.656000e-02	-1.24589e-03	-1.66119e-03	1.162723e+00	
52	8.856000e-02	-1.17943e-03	-1.57258e-03	1.162723e+00	
53	9.056000e-02	5.169644e-04	6.892858e-04	1.162722e+00	
54	9.256000e-02	1.498934e-03	1.998579e-03	1.162723e+00	

Index   time            in1             in2             net-_c1-pad1_   
--------------------------------------------------------------------------------
55	9.456000e-02	4.094279e-04	5.459039e-04	1.162723e+00	
56	9.656000e-02	-1.24589e-03	-1.66119e-03	1.162723e+00	
57	9.856000e-02	-1.17943e-03	-1.57258e-03	1.162723e+00	
58	1.000000e-01	-3.67394e-18	-4.89859e-18	1.162722e+00	

               * /home/manpa/esim-workspace/ia_model/ia_model.cir
               Transient Analysis  Wed Jun 30 17:36:29  2021
--------------------------------------------------------------------------------
Index   time            net-_q1-pad2_   net-_q1-pad3_   net-_q2-pad1_   
--------------------------------------------------------------------------------
0	0.000000e+00	9.703958e+03	9.703958e-02	9.713662e-02	
1	1.000000e-05	9.703958e+03	9.703947e-02	9.713662e-02	
2	2.000000e-05	9.703956e+03	9.703935e-02	9.713662e-02	
3	4.000000e-05	9.703953e+03	9.703912e-02	9.713661e-02	
4	8.000000e-05	9.703938e+03	9.703864e-02	9.713657e-02	
5	1.600000e-04	9.703881e+03	9.703762e-02	9.713643e-02	
6	3.200000e-04	9.703654e+03	9.703532e-02	9.713588e-02	
7	6.400000e-04	9.702764e+03	9.702985e-02	9.713372e-02	
8	1.280000e-03	9.699461e+03	9.701632e-02	9.712572e-02	
9	2.560000e-03	9.689555e+03	9.698837e-02	9.710174e-02	
10	4.560000e-03	9.679314e+03	9.697767e-02	9.707710e-02	
11	6.560000e-03	9.686655e+03	9.701469e-02	9.709522e-02	
12	8.560000e-03	9.702955e+03	9.705191e-02	9.713487e-02	
13	1.056000e-02	9.707071e+03	9.704129e-02	9.714475e-02	
14	1.256000e-02	9.694571e+03	9.700049e-02	9.711436e-02	
15	1.456000e-02	9.683873e+03	9.698862e-02	9.708850e-02	
16	1.656000e-02	9.690799e+03	9.702456e-02	9.710550e-02	
17	1.856000e-02	9.706720e+03	9.706080e-02	9.714413e-02	
18	2.056000e-02	9.710491e+03	9.704930e-02	9.715310e-02	
19	2.256000e-02	9.697678e+03	9.700774e-02	9.712191e-02	
20	2.456000e-02	9.686694e+03	9.699517e-02	9.709533e-02	
21	2.656000e-02	9.693360e+03	9.703046e-02	9.711166e-02	
22	2.856000e-02	9.709045e+03	9.706610e-02	9.714967e-02	
23	3.056000e-02	9.712600e+03	9.705410e-02	9.715811e-02	
24	3.256000e-02	9.699592e+03	9.701207e-02	9.712643e-02	
25	3.456000e-02	9.688430e+03	9.699908e-02	9.709942e-02	
26	3.656000e-02	9.694935e+03	9.703398e-02	9.711535e-02	
27	3.856000e-02	9.710474e+03	9.706928e-02	9.715299e-02	
28	4.056000e-02	9.713896e+03	9.705696e-02	9.716110e-02	
29	4.256000e-02	9.700766e+03	9.701466e-02	9.712914e-02	
30	4.456000e-02	9.689495e+03	9.700142e-02	9.710187e-02	
31	4.656000e-02	9.695900e+03	9.703610e-02	9.711755e-02	
32	4.856000e-02	9.711349e+03	9.707118e-02	9.715498e-02	
33	5.056000e-02	9.714689e+03	9.705867e-02	9.716289e-02	
34	5.256000e-02	9.701485e+03	9.701621e-02	9.713076e-02	
35	5.456000e-02	9.690146e+03	9.700282e-02	9.710333e-02	
36	5.656000e-02	9.696490e+03	9.703735e-02	9.711887e-02	
37	5.856000e-02	9.711883e+03	9.707231e-02	9.715617e-02	
38	6.056000e-02	9.715173e+03	9.705969e-02	9.716397e-02	
39	6.256000e-02	9.701923e+03	9.701714e-02	9.713173e-02	
40	6.456000e-02	9.690543e+03	9.700366e-02	9.710421e-02	
41	6.656000e-02	9.696850e+03	9.703811e-02	9.711966e-02	
42	6.856000e-02	9.712208e+03	9.707299e-02	9.715688e-02	
43	7.056000e-02	9.715467e+03	9.706031e-02	9.716461e-02	
44	7.256000e-02	9.702190e+03	9.701769e-02	9.713231e-02	
45	7.456000e-02	9.690785e+03	9.700416e-02	9.710474e-02	
46	7.656000e-02	9.697068e+03	9.703856e-02	9.712014e-02	
47	7.856000e-02	9.712406e+03	9.707340e-02	9.715731e-02	
48	8.056000e-02	9.715646e+03	9.706067e-02	9.716499e-02	
49	8.256000e-02	9.702351e+03	9.701802e-02	9.713266e-02	
50	8.456000e-02	9.690931e+03	9.700446e-02	9.710505e-02	
51	8.656000e-02	9.697201e+03	9.703883e-02	9.712042e-02	
52	8.856000e-02	9.712526e+03	9.707364e-02	9.715757e-02	
53	9.056000e-02	9.715755e+03	9.706089e-02	9.716522e-02	
54	9.256000e-02	9.702450e+03	9.701822e-02	9.713287e-02	

Index   time            net-_q1-pad2_   net-_q1-pad3_   net-_q2-pad1_   
--------------------------------------------------------------------------------
55	9.456000e-02	9.691020e+03	9.700464e-02	9.710524e-02	
56	9.656000e-02	9.697281e+03	9.703899e-02	9.712059e-02	
57	9.856000e-02	9.712598e+03	9.707379e-02	9.715772e-02	
58	1.000000e-01	9.717234e+03	9.707044e-02	9.716880e-02	

               * /home/manpa/esim-workspace/ia_model/ia_model.cir
               Transient Analysis  Wed Jun 30 17:36:29  2021
--------------------------------------------------------------------------------
Index   time            net-_q2-pad2_   net-_q4-pad1_   net-_q4-pad3_   
--------------------------------------------------------------------------------
0	0.000000e+00	1.143735e+03	1.162734e+00	5.813671e-01	
1	1.000000e-05	1.143735e+03	1.162734e+00	5.813671e-01	
2	2.000000e-05	1.143734e+03	1.162734e+00	5.813671e-01	
3	4.000000e-05	1.143734e+03	1.162734e+00	5.813671e-01	
4	8.000000e-05	1.143732e+03	1.162734e+00	5.813671e-01	
5	1.600000e-04	1.143723e+03	1.162734e+00	5.813671e-01	
6	3.200000e-04	1.143688e+03	1.162734e+00	5.813671e-01	
7	6.400000e-04	1.143550e+03	1.162734e+00	5.813671e-01	
8	1.280000e-03	1.143039e+03	1.162734e+00	5.813671e-01	
9	2.560000e-03	1.141508e+03	1.162734e+00	5.813671e-01	
10	4.560000e-03	1.139937e+03	1.162734e+00	5.813671e-01	
11	6.560000e-03	1.141091e+03	1.162734e+00	5.813671e-01	
12	8.560000e-03	1.143621e+03	1.162734e+00	5.813671e-01	
13	1.056000e-02	1.144253e+03	1.162734e+00	5.813671e-01	
14	1.256000e-02	1.142314e+03	1.162734e+00	5.813671e-01	
15	1.456000e-02	1.140664e+03	1.162734e+00	5.813671e-01	
16	1.656000e-02	1.141747e+03	1.162734e+00	5.813671e-01	
17	1.856000e-02	1.144213e+03	1.162734e+00	5.813671e-01	
18	2.056000e-02	1.144787e+03	1.162734e+00	5.813671e-01	
19	2.256000e-02	1.142796e+03	1.162734e+00	5.813671e-01	
20	2.456000e-02	1.141099e+03	1.162734e+00	5.813671e-01	
21	2.656000e-02	1.142140e+03	1.162734e+00	5.813671e-01	
22	2.856000e-02	1.144568e+03	1.162734e+00	5.813671e-01	
23	3.056000e-02	1.145107e+03	1.162734e+00	5.813671e-01	
24	3.256000e-02	1.143085e+03	1.162734e+00	5.813671e-01	
25	3.456000e-02	1.141360e+03	1.162734e+00	5.813671e-01	
26	3.656000e-02	1.142375e+03	1.162734e+00	5.813671e-01	
27	3.856000e-02	1.144780e+03	1.162734e+00	5.813671e-01	
28	4.056000e-02	1.145299e+03	1.162734e+00	5.813671e-01	
29	4.256000e-02	1.143258e+03	1.162734e+00	5.813671e-01	
30	4.456000e-02	1.141516e+03	1.162734e+00	5.813671e-01	
31	4.656000e-02	1.142516e+03	1.162734e+00	5.813671e-01	
32	4.856000e-02	1.144907e+03	1.162734e+00	5.813671e-01	
33	5.056000e-02	1.145414e+03	1.162734e+00	5.813671e-01	
34	5.256000e-02	1.143361e+03	1.162734e+00	5.813671e-01	
35	5.456000e-02	1.141609e+03	1.162734e+00	5.813671e-01	
36	5.656000e-02	1.142600e+03	1.162734e+00	5.813671e-01	
37	5.856000e-02	1.144983e+03	1.162734e+00	5.813671e-01	
38	6.056000e-02	1.145482e+03	1.162734e+00	5.813671e-01	
39	6.256000e-02	1.143423e+03	1.162734e+00	5.813671e-01	
40	6.456000e-02	1.141665e+03	1.162734e+00	5.813671e-01	
41	6.656000e-02	1.142651e+03	1.162734e+00	5.813671e-01	
42	6.856000e-02	1.145029e+03	1.162734e+00	5.813671e-01	
43	7.056000e-02	1.145524e+03	1.162734e+00	5.813671e-01	
44	7.256000e-02	1.143460e+03	1.162734e+00	5.813671e-01	
45	7.456000e-02	1.141699e+03	1.162734e+00	5.813671e-01	
46	7.656000e-02	1.142681e+03	1.162734e+00	5.813671e-01	
47	7.856000e-02	1.145056e+03	1.162734e+00	5.813671e-01	
48	8.056000e-02	1.145548e+03	1.162734e+00	5.813671e-01	
49	8.256000e-02	1.143483e+03	1.162734e+00	5.813671e-01	
50	8.456000e-02	1.141719e+03	1.162734e+00	5.813671e-01	
51	8.656000e-02	1.142699e+03	1.162734e+00	5.813671e-01	
52	8.856000e-02	1.145073e+03	1.162734e+00	5.813671e-01	
53	9.056000e-02	1.145563e+03	1.162734e+00	5.813671e-01	
54	9.256000e-02	1.143496e+03	1.162734e+00	5.813671e-01	

Index   time            net-_q2-pad2_   net-_q4-pad1_   net-_q4-pad3_   
--------------------------------------------------------------------------------
55	9.456000e-02	1.141731e+03	1.162734e+00	5.813671e-01	
56	9.656000e-02	1.142710e+03	1.162734e+00	5.813671e-01	
57	9.856000e-02	1.145082e+03	1.162734e+00	5.813671e-01	
58	1.000000e-01	1.145793e+03	1.162734e+00	5.813671e-01	

               * /home/manpa/esim-workspace/ia_model/ia_model.cir
               Transient Analysis  Wed Jun 30 17:36:29  2021
--------------------------------------------------------------------------------
Index   time            out             vdd             x1.net-_cbw1-pa 
--------------------------------------------------------------------------------
0	0.000000e+00	1.160295e+00	5.000000e+00	9.713662e+03	
1	1.000000e-05	1.160308e+00	5.000000e+00	9.713661e+03	
2	2.000000e-05	1.160320e+00	5.000000e+00	9.713660e+03	
3	4.000000e-05	1.160345e+00	5.000000e+00	9.713655e+03	
4	8.000000e-05	1.160394e+00	5.000000e+00	9.713636e+03	
5	1.600000e-04	1.160492e+00	5.000000e+00	9.713561e+03	
6	3.200000e-04	1.160685e+00	5.000000e+00	9.713261e+03	
7	6.400000e-04	1.161054e+00	5.000000e+00	9.712090e+03	
8	1.280000e-03	1.161669e+00	5.000000e+00	9.707745e+03	
9	2.560000e-03	1.162122e+00	5.000000e+00	9.694738e+03	
10	4.560000e-03	1.160594e+00	5.000000e+00	9.681382e+03	
11	6.560000e-03	1.158492e+00	5.000000e+00	9.691190e+03	
12	8.560000e-03	1.158738e+00	5.000000e+00	9.712697e+03	
13	1.056000e-02	1.161001e+00	5.000000e+00	9.718067e+03	
14	1.256000e-02	1.162170e+00	5.000000e+00	9.701582e+03	
15	1.456000e-02	1.160637e+00	5.000000e+00	9.687560e+03	
16	1.656000e-02	1.158532e+00	5.000000e+00	9.696766e+03	
17	1.856000e-02	1.158775e+00	5.000000e+00	9.717730e+03	
18	2.056000e-02	1.161035e+00	5.000000e+00	9.722609e+03	
19	2.256000e-02	1.162200e+00	5.000000e+00	9.705682e+03	
20	2.456000e-02	1.160665e+00	5.000000e+00	9.691260e+03	
21	2.656000e-02	1.158557e+00	5.000000e+00	9.700105e+03	
22	2.856000e-02	1.158798e+00	5.000000e+00	9.720743e+03	
23	3.056000e-02	1.161055e+00	5.000000e+00	9.725330e+03	
24	3.256000e-02	1.162219e+00	5.000000e+00	9.708137e+03	
25	3.456000e-02	1.160682e+00	5.000000e+00	9.693476e+03	
26	3.656000e-02	1.158573e+00	5.000000e+00	9.702105e+03	
27	3.856000e-02	1.158811e+00	5.000000e+00	9.722548e+03	
28	4.056000e-02	1.161068e+00	5.000000e+00	9.726958e+03	
29	4.256000e-02	1.162230e+00	5.000000e+00	9.709607e+03	
30	4.456000e-02	1.160693e+00	5.000000e+00	9.694802e+03	
31	4.656000e-02	1.158582e+00	5.000000e+00	9.703303e+03	
32	4.856000e-02	1.158820e+00	5.000000e+00	9.723629e+03	
33	5.056000e-02	1.161075e+00	5.000000e+00	9.727934e+03	
34	5.256000e-02	1.162237e+00	5.000000e+00	9.710487e+03	
35	5.456000e-02	1.160699e+00	5.000000e+00	9.695597e+03	
36	5.656000e-02	1.158588e+00	5.000000e+00	9.704020e+03	
37	5.856000e-02	1.158825e+00	5.000000e+00	9.724276e+03	
38	6.056000e-02	1.161081e+00	5.000000e+00	9.728518e+03	
39	6.256000e-02	1.162241e+00	5.000000e+00	9.711014e+03	
40	6.456000e-02	1.160703e+00	5.000000e+00	9.696073e+03	
41	6.656000e-02	1.158592e+00	5.000000e+00	9.704449e+03	
42	6.856000e-02	1.158829e+00	5.000000e+00	9.724664e+03	
43	7.056000e-02	1.161083e+00	5.000000e+00	9.728868e+03	
44	7.256000e-02	1.162244e+00	5.000000e+00	9.711330e+03	
45	7.456000e-02	1.160705e+00	5.000000e+00	9.696358e+03	
46	7.656000e-02	1.158594e+00	5.000000e+00	9.704706e+03	
47	7.856000e-02	1.158831e+00	5.000000e+00	9.724896e+03	
48	8.056000e-02	1.161085e+00	5.000000e+00	9.729077e+03	
49	8.256000e-02	1.162246e+00	5.000000e+00	9.711519e+03	
50	8.456000e-02	1.160707e+00	5.000000e+00	9.696528e+03	
51	8.656000e-02	1.158595e+00	5.000000e+00	9.704860e+03	
52	8.856000e-02	1.158832e+00	5.000000e+00	9.725035e+03	
53	9.056000e-02	1.161086e+00	5.000000e+00	9.729203e+03	
54	9.256000e-02	1.162247e+00	5.000000e+00	9.711632e+03	

Index   time            out             vdd             x1.net-_cbw1-pa 
--------------------------------------------------------------------------------
55	9.456000e-02	1.160708e+00	5.000000e+00	9.696630e+03	
56	9.656000e-02	1.158596e+00	5.000000e+00	9.704953e+03	
57	9.856000e-02	1.158833e+00	5.000000e+00	9.725118e+03	
58	1.000000e-01	1.160423e+00	5.000000e+00	9.731160e+03	

               * /home/manpa/esim-workspace/ia_model/ia_model.cir
               Transient Analysis  Wed Jun 30 17:36:29  2021
--------------------------------------------------------------------------------
Index   time            x1.net-_ein1-pa x1.net-_eout1-p x2.net-_cbw1-pa 
--------------------------------------------------------------------------------
0	0.000000e+00	9.713662e+03	9.713662e+03	9.703958e+03	
1	1.000000e-05	9.712405e+03	9.713661e+03	9.703958e+03	
2	2.000000e-05	9.711148e+03	9.713660e+03	9.703956e+03	
3	4.000000e-05	9.708635e+03	9.713655e+03	9.703953e+03	
4	8.000000e-05	9.703608e+03	9.713636e+03	9.703938e+03	
5	1.600000e-04	9.693571e+03	9.713561e+03	9.703881e+03	
6	3.200000e-04	9.673646e+03	9.713261e+03	9.703654e+03	
7	6.400000e-04	9.635097e+03	9.712090e+03	9.702764e+03	
8	1.280000e-03	9.568510e+03	9.707745e+03	9.699461e+03	
9	2.560000e-03	9.510316e+03	9.694738e+03	9.689555e+03	
10	4.560000e-03	9.653119e+03	9.681382e+03	9.679314e+03	
11	6.560000e-03	9.875641e+03	9.691190e+03	9.686655e+03	
12	8.560000e-03	9.870745e+03	9.712697e+03	9.702955e+03	
13	1.056000e-02	9.645546e+03	9.718067e+03	9.707071e+03	
14	1.256000e-02	9.511578e+03	9.701582e+03	9.694571e+03	
15	1.456000e-02	9.654260e+03	9.687560e+03	9.683873e+03	
16	1.656000e-02	9.876669e+03	9.696766e+03	9.690799e+03	
17	1.856000e-02	9.871671e+03	9.717730e+03	9.706720e+03	
18	2.056000e-02	9.646382e+03	9.722609e+03	9.710491e+03	
19	2.256000e-02	9.512333e+03	9.705682e+03	9.697678e+03	
20	2.456000e-02	9.654943e+03	9.691260e+03	9.686694e+03	
21	2.656000e-02	9.877285e+03	9.700105e+03	9.693360e+03	
22	2.856000e-02	9.872225e+03	9.720743e+03	9.709045e+03	
23	3.056000e-02	9.646882e+03	9.725330e+03	9.712600e+03	
24	3.256000e-02	9.512786e+03	9.708137e+03	9.699592e+03	
25	3.456000e-02	9.655352e+03	9.693476e+03	9.688430e+03	
26	3.656000e-02	9.877654e+03	9.702105e+03	9.694935e+03	
27	3.856000e-02	9.872557e+03	9.722548e+03	9.710474e+03	
28	4.056000e-02	9.647181e+03	9.726958e+03	9.713896e+03	
29	4.256000e-02	9.513056e+03	9.709607e+03	9.700766e+03	
30	4.456000e-02	9.655596e+03	9.694802e+03	9.689495e+03	
31	4.656000e-02	9.877874e+03	9.703303e+03	9.695900e+03	
32	4.856000e-02	9.872756e+03	9.723629e+03	9.711349e+03	
33	5.056000e-02	9.647361e+03	9.727934e+03	9.714689e+03	
34	5.256000e-02	9.513218e+03	9.710487e+03	9.701485e+03	
35	5.456000e-02	9.655743e+03	9.695597e+03	9.690146e+03	
36	5.656000e-02	9.878007e+03	9.704020e+03	9.696490e+03	
37	5.856000e-02	9.872875e+03	9.724276e+03	9.711883e+03	
38	6.056000e-02	9.647468e+03	9.728518e+03	9.715173e+03	
39	6.256000e-02	9.513315e+03	9.711014e+03	9.701923e+03	
40	6.456000e-02	9.655831e+03	9.696073e+03	9.690543e+03	
41	6.656000e-02	9.878086e+03	9.704449e+03	9.696850e+03	
42	6.856000e-02	9.872946e+03	9.724664e+03	9.712208e+03	
43	7.056000e-02	9.647532e+03	9.728868e+03	9.715467e+03	
44	7.256000e-02	9.513374e+03	9.711330e+03	9.702190e+03	
45	7.456000e-02	9.655883e+03	9.696358e+03	9.690785e+03	
46	7.656000e-02	9.878133e+03	9.704706e+03	9.697068e+03	
47	7.856000e-02	9.872989e+03	9.724896e+03	9.712406e+03	
48	8.056000e-02	9.647571e+03	9.729077e+03	9.715646e+03	
49	8.256000e-02	9.513408e+03	9.711519e+03	9.702351e+03	
50	8.456000e-02	9.655915e+03	9.696528e+03	9.690931e+03	
51	8.656000e-02	9.878161e+03	9.704860e+03	9.697201e+03	
52	8.856000e-02	9.873014e+03	9.725035e+03	9.712526e+03	
53	9.056000e-02	9.647594e+03	9.729203e+03	9.715755e+03	
54	9.256000e-02	9.513429e+03	9.711632e+03	9.702450e+03	

Index   time            x1.net-_ein1-pa x1.net-_eout1-p x2.net-_cbw1-pa 
--------------------------------------------------------------------------------
55	9.456000e-02	9.655933e+03	9.696630e+03	9.691020e+03	
56	9.656000e-02	9.878178e+03	9.704953e+03	9.697281e+03	
57	9.856000e-02	9.873030e+03	9.725118e+03	9.712598e+03	
58	1.000000e-01	9.716880e+03	9.731160e+03	9.717234e+03	

               * /home/manpa/esim-workspace/ia_model/ia_model.cir
               Transient Analysis  Wed Jun 30 17:36:29  2021
--------------------------------------------------------------------------------
Index   time            x2.net-_ein1-pa x2.net-_eout1-p x3.net-_cbw1-pa 
--------------------------------------------------------------------------------
0	0.000000e+00	9.703958e+03	9.703958e+03	1.160295e+00	
1	1.000000e-05	9.703004e+03	9.703958e+03	1.160307e+00	
2	2.000000e-05	9.702050e+03	9.703956e+03	1.160319e+00	
3	4.000000e-05	9.700143e+03	9.703953e+03	1.160344e+00	
4	8.000000e-05	9.696328e+03	9.703938e+03	1.160393e+00	
5	1.600000e-04	9.688707e+03	9.703881e+03	1.160491e+00	
6	3.200000e-04	9.673576e+03	9.703654e+03	1.160684e+00	
7	6.400000e-04	9.644278e+03	9.702764e+03	1.161053e+00	
8	1.280000e-03	9.593586e+03	9.699461e+03	1.161668e+00	
9	2.560000e-03	9.548944e+03	9.689555e+03	1.162122e+00	
